LTspice 24.0.9 for Windows
Circuit: * C:\Users\HJH\Desktop\simulator\based_on_python\OPAMP3\simfile\opamp.asc
Start Time: Thu May 16 15:31:50 2024
Ignoring BSIM parameter CALCACM
Ignoring BSIM parameter XL
Ignoring BSIM parameter XW
Ignoring BSIM parameter ACM
Ignoring BSIM parameter LDIF
Ignoring BSIM parameter HDIF
Ignoring BSIM parameter TLEVC
Ignoring BSIM parameter CALCACM
Ignoring BSIM parameter XL
Ignoring BSIM parameter XW
Ignoring BSIM parameter ACM
Ignoring BSIM parameter LDIF
Ignoring BSIM parameter HDIF
Ignoring BSIM parameter TLEVC
Error on line 1238 : .model smic18p33 pmos level = 49 calcacm = 1 lmin = 2.6e-7 lmax = 1.0e-5 wmin = 1.9e-7 wmax = 1.0e-4 tnom = 25.0 version = 3.24 tox =  6.62e-09  toxm = 6.62e-09 xj = 1.7000001e-07 nch = 5.4852000e+17 lln = 1.0471729 lwn = 0.9530895 wln = 1.0257638 wwn = 0.9617700 lint = 3.5000000e-08 ll = 5.5000000e-15 lw = -4.7160380e-14 lwl = 7.0054450e-22 wint = 1.3000000e-08 wl = -3.1491245e-14 ww = 2.3000000e-15 wwl = -2.4167156e-22 mobmod = 1 binunit = 2 xl =  -1.7e-08  xw =  0  dwg = 0.00 dwb = 8.6000000e-09 acm = 12 ldif = 6.50e-08 hdif = 2.05e-07 rsh = 9.8 rd = 0 rs = 0 rsc = 1 rdc = 1 vth0 =  -0.672  wvth0 = 4.0000000e-09 pvth0 =  6e-15  k1 = 0.9145741 pk1 = -1.7000000e-14 k2 = 4.1276220e-02 k3 = 0.1293833 dvt0 = 1.8000000 dvt1 = 0.7100000 dvt2 = -7.0000000e-02 dvt0w = 0.00 dvt1w = 0.00 dvt2w = 0.00 nlx = 1.2000000e-08 w0 = 1.0021131e-09 k3b = 0.4000000 ngate = 1.1600000e+20 vsat = 8.5500000e+04 pvsat = -5.8000000e-09 ua = 3.1500000e-10 lua = 1.5000001e-17 wua = -1.6763224e-16 pua = -1.1000000e-23 ub = 1.0444180e-18 lub = -7.0000000e-27 uc = -3.5000000e-11 luc = 4.0000000e-18 puc = 5.0000000e-24 rdsw = 9.5000000e+02 prwb = 0.00 prwg = 6.3755660e-03 wr = 1.0000000 u0 = 9.2500000e-03 lu0 = -4.1500680e-10 wu0 = -1.7001526e-12 pu0 = -3.7999640e-16 a0 = 0.8500000 keta = 1.5000000e-02 lketa = -1.0000000e-08 wketa = 1.0000000e-09 pketa = -6.0000000e-15 a1 = 0.00 a2 = 0.9900000 ags = 4.0000000e-02 b0 = 4.6000000e-08 b1 = 0.00 voff = -0.1000000 lvoff = 1.8000000e-09 pvoff = -2.9999999e-15 nfactor = 1.1000000 pnfactor = -4.0000000e-14 cit = 1.9999999e-04 cdsc = 4.5263850e-05 cdscb = 0.00 cdscd = 0.00 eta0 = 5.0000000e-03 peta0 = 7.0000000e-15 etab = -1.5000000e-02 petab = -2.0000000e-15 dsub = 0.5800000 pclm = 0.6000000 ppclm = 1.3000000e-13 pdiblc1 = 6.0000000e-03 pdiblc2 = 2.5000001e-04 wpdiblc2 = 8.0000000e-11 pdiblcb = 0.00 drout = 0.5600000 pscbe1 = 3.3000000e+08 ppscbe1 = -7.0000000e-06 pscbe2 = 2.0000000e-07 pvag = 0.00 delta = 8.0000000e-03 pdelta = 4.0000000e-16 alpha0 = 1.3410400e-06 alpha1 = 5.6136910e-02 beta0 = 27.5998000 kt1 = -0.3840900 wkt1 = -9.4333370e-10 pkt1 = 4.9999980e-15 kt2 = -4.1563480e-02 at = -2.0000000e+03 pat = -7.5000000e-09 ute = -1.3236057 ua1 = 3.0000002e-10 wua1 = 8.0000000e-18 pua1 = 1.0000000e-23 ub1 = -2.0704662e-18 wub1 = 1.4000000e-25 uc1 = -5.0000000e-11 kt1l = -6.0000000e-09 prt = 1.3000000e+02 noimod = 2 noia = 3.5911e+19 noib = 3.0215e+03 noic = 6.7064e-12 em = 4.2400e+07 ef = 1.0829e+00 cj =  0.00101  mj = 0.401 pb = 0.807 cjsw =  8.96e-11  mjsw = 0.45 pbsw = 1 cjswg =  3.19e-10  mjswg = 0.45 pbswg = 1 tpb = 0.00157 tpbsw = 0.00137 tpbswg = 0.00137 tcj = 0.000883 tcjsw = 0.000709 tcjswg = 0.000709 js = 1.68e-07 jsw = 4.0e-13 nj = 1.07 xti = 3.0 nqsmod = 0 elm = 5 cgdo =  3.23e-10  cgso =  3.23e-10  tlevc = 1 capmod = 3 xpart = 1 cf = 0.00 acde = 0.55 moin = 15 noff = 0.565 dlc = 7.0e-09 dwc = 6.0e-8
	* Unrecognized parameter "rsc" -- ignored
Error on line 1238 : .model smic18p33 pmos level = 49 calcacm = 1 lmin = 2.6e-7 lmax = 1.0e-5 wmin = 1.9e-7 wmax = 1.0e-4 tnom = 25.0 version = 3.24 tox =  6.62e-09  toxm = 6.62e-09 xj = 1.7000001e-07 nch = 5.4852000e+17 lln = 1.0471729 lwn = 0.9530895 wln = 1.0257638 wwn = 0.9617700 lint = 3.5000000e-08 ll = 5.5000000e-15 lw = -4.7160380e-14 lwl = 7.0054450e-22 wint = 1.3000000e-08 wl = -3.1491245e-14 ww = 2.3000000e-15 wwl = -2.4167156e-22 mobmod = 1 binunit = 2 xl =  -1.7e-08  xw =  0  dwg = 0.00 dwb = 8.6000000e-09 acm = 12 ldif = 6.50e-08 hdif = 2.05e-07 rsh = 9.8 rd = 0 rs = 0 rsc = 1 rdc = 1 vth0 =  -0.672  wvth0 = 4.0000000e-09 pvth0 =  6e-15  k1 = 0.9145741 pk1 = -1.7000000e-14 k2 = 4.1276220e-02 k3 = 0.1293833 dvt0 = 1.8000000 dvt1 = 0.7100000 dvt2 = -7.0000000e-02 dvt0w = 0.00 dvt1w = 0.00 dvt2w = 0.00 nlx = 1.2000000e-08 w0 = 1.0021131e-09 k3b = 0.4000000 ngate = 1.1600000e+20 vsat = 8.5500000e+04 pvsat = -5.8000000e-09 ua = 3.1500000e-10 lua = 1.5000001e-17 wua = -1.6763224e-16 pua = -1.1000000e-23 ub = 1.0444180e-18 lub = -7.0000000e-27 uc = -3.5000000e-11 luc = 4.0000000e-18 puc = 5.0000000e-24 rdsw = 9.5000000e+02 prwb = 0.00 prwg = 6.3755660e-03 wr = 1.0000000 u0 = 9.2500000e-03 lu0 = -4.1500680e-10 wu0 = -1.7001526e-12 pu0 = -3.7999640e-16 a0 = 0.8500000 keta = 1.5000000e-02 lketa = -1.0000000e-08 wketa = 1.0000000e-09 pketa = -6.0000000e-15 a1 = 0.00 a2 = 0.9900000 ags = 4.0000000e-02 b0 = 4.6000000e-08 b1 = 0.00 voff = -0.1000000 lvoff = 1.8000000e-09 pvoff = -2.9999999e-15 nfactor = 1.1000000 pnfactor = -4.0000000e-14 cit = 1.9999999e-04 cdsc = 4.5263850e-05 cdscb = 0.00 cdscd = 0.00 eta0 = 5.0000000e-03 peta0 = 7.0000000e-15 etab = -1.5000000e-02 petab = -2.0000000e-15 dsub = 0.5800000 pclm = 0.6000000 ppclm = 1.3000000e-13 pdiblc1 = 6.0000000e-03 pdiblc2 = 2.5000001e-04 wpdiblc2 = 8.0000000e-11 pdiblcb = 0.00 drout = 0.5600000 pscbe1 = 3.3000000e+08 ppscbe1 = -7.0000000e-06 pscbe2 = 2.0000000e-07 pvag = 0.00 delta = 8.0000000e-03 pdelta = 4.0000000e-16 alpha0 = 1.3410400e-06 alpha1 = 5.6136910e-02 beta0 = 27.5998000 kt1 = -0.3840900 wkt1 = -9.4333370e-10 pkt1 = 4.9999980e-15 kt2 = -4.1563480e-02 at = -2.0000000e+03 pat = -7.5000000e-09 ute = -1.3236057 ua1 = 3.0000002e-10 wua1 = 8.0000000e-18 pua1 = 1.0000000e-23 ub1 = -2.0704662e-18 wub1 = 1.4000000e-25 uc1 = -5.0000000e-11 kt1l = -6.0000000e-09 prt = 1.3000000e+02 noimod = 2 noia = 3.5911e+19 noib = 3.0215e+03 noic = 6.7064e-12 em = 4.2400e+07 ef = 1.0829e+00 cj =  0.00101  mj = 0.401 pb = 0.807 cjsw =  8.96e-11  mjsw = 0.45 pbsw = 1 cjswg =  3.19e-10  mjswg = 0.45 pbswg = 1 tpb = 0.00157 tpbsw = 0.00137 tpbswg = 0.00137 tcj = 0.000883 tcjsw = 0.000709 tcjswg = 0.000709 js = 1.68e-07 jsw = 4.0e-13 nj = 1.07 xti = 3.0 nqsmod = 0 elm = 5 cgdo =  3.23e-10  cgso =  3.23e-10  tlevc = 1 capmod = 3 xpart = 1 cf = 0.00 acde = 0.55 moin = 15 noff = 0.565 dlc = 7.0e-09 dwc = 6.0e-8
	* Unrecognized parameter "rdc" -- ignored
Error on line 1237 : .model smic18n33 nmos level = 49 calcacm = 1 lmin = 3.0e-7 lmax = 1.0e-5 wmin = 1.9e-7 wmax = 1.0e-4 tnom = 25.0 version = 3.24 tox =  6.65e-09  toxm = 6.65e-09 xj = 1.6000000e-07 nch = 4.3441000e+17 lln = 1.0625758 lwn = 1.0101005 wln = 0.9810000 wwn = 0.9060000 lint = 6.3891300e-08 ll = -2.3305548e-15 lw = -2.4634918e-15 lwl = 2.6243002e-24 wint = 3.5850000e-08 wl = -1.8902563e-15 ww = -1.3000000e-14 wwl = -1.3027796e-20 mobmod = 1 binunit = 2 xl =  1e-08  xw =  0  dwg = -3.9100000e-09 dwb = 3.2000000e-09 acm = 12 ldif = 6.50e-08 hdif = 2.05e-07 rsh = 7.08 rd = 0 rs = 0 rsc = 1.6 rdc = 1.6 vth0 =  0.695  lvth0 = 4.0100000e-10 wvth0 = 1.0200000e-08 pvth0 =  8e-16  k1 = 0.8451000 lk1 = 5.8182560e-10 wk1 = -6.2456240e-09 pk1 = 1.9938927e-15 k2 = 4.4575000e-02 k3 = -3.8500000 dvt0 = 9.4991400 ldvt0 = 8.0839730e-09 dvt1 = 0.6300000 ldvt1 = 5.5000000e-08 dvt2 = -0.1450000 dvt0w = 0.00 dvt1w = 0.1057000 dvt2w = 0.00 nlx = 2.0274594e-07 lnlx = -2.8608589e-14 w0 = 0.00 k3b = 0.5669292 ngate = 2.6812141e+21 vsat = 8.5000000e+04 lvsat = -1.7300000e-03 pvsat = 1.2000000e-10 ua = -8.6001130e-10 ub = 2.3000001e-18 uc = 1.3100000e-10 puc = 5.0000000e-25 rdsw = 2.4208382e+02 prwb = -8.5000000e-02 prwg = 3.8000000e-02 wr = 1.0000000 u0 = 3.5000000e-02 lu0 = 5.0000000e-10 a0 = 1.0200000 la0 = -1.2000000e-07 keta = 0.00 lketa = -1.4000000e-08 wketa = -1.9999999e-09 pketa = 1.0000000e-15 a1 = 0.00 a2 = 0.9900000 ags = 0.1700000 b0 = 1.0000000e-08 b1 = 0.00 voff = -0.1200000 nfactor = 1.1000000 lnfactor = 4.0000000e-08 pnfactor = -1.4000000e-14 cit = 1.0000000e-04 cdsc = 5.0000000e-04 cdscb = 0.00 cdscd = 0.00 eta0 = 4.0000000e-02 peta0 = 3.0000001e-16 etab = -0.1000000 dsub = 0.6000000 pclm = 0.8000000 lpclm = 5.0000000e-08 ppclm = 8.0000000e-15 pdiblc1 = 9.0000000e-02 pdiblc2 = 1.6000000e-03 ppdiblc2 = -7.0000000e-17 pdiblcb = 0.00 drout = 0.5987002 pscbe1 = 3.4000000e+08 lpscbe1 = 13.0000000 pscbe2 = 3.8000000e-06 pvag = 0.00 delta = 1.0000000e-02 alpha0 = -4.4760000e-08 alpha1 = 0.8998877 beta0 = 18.8771250 lbeta0 = -5.7118000e-07 kt1 = -0.3250000 pkt1 = -2.3708420e-15 kt2 = -3.6844640e-02 at = 2.2000000e+04 ute = -1.4100000 ua1 = 2.0599999e-09 wua1 = -1.2600000e-16 pua1 = -1.0000000e-24 ub1 = -2.5000000e-18 wub1 = 1.1000000e-25 uc1 = -1.1000000e-10 luc1 = 1.6999999e-17 kt1l = -5.0000000e-09 prt = 40.0000000 noimod = 2 noia = 1.5500e+20 noib = 7.1866e+04 noic = 1.4952e-13 em = 3.2163e+07 ef = 9.9600e-01 cj =  0.000845  mj = 0.321 pb = 0.708 cjsw =  9.15e-11  mjsw = 0.447 pbsw = 1 cjswg =  3.41e-10  mjswg = 0.447 pbswg = 1 tpb = 0.00166 tpbsw = 0.00162 tpbswg = 0.00162 tcj = 0.000897 tcjsw = 0.000695 tcjswg = 0.000695 js = 3.65e-07 jsw = 3.0e-13 nj = 1.04 xti = 3.9 nqsmod = 0 elm = 5 cgdo =  3.86e-10  cgso =  3.86e-10  tlevc = 1 capmod = 3 xpart = 1 cf = 0.00 acde = 0.45 moin = 24 noff = 2.3177 dlc = 6.50e-08
	* Unrecognized parameter "rsc" -- ignored
Error on line 1237 : .model smic18n33 nmos level = 49 calcacm = 1 lmin = 3.0e-7 lmax = 1.0e-5 wmin = 1.9e-7 wmax = 1.0e-4 tnom = 25.0 version = 3.24 tox =  6.65e-09  toxm = 6.65e-09 xj = 1.6000000e-07 nch = 4.3441000e+17 lln = 1.0625758 lwn = 1.0101005 wln = 0.9810000 wwn = 0.9060000 lint = 6.3891300e-08 ll = -2.3305548e-15 lw = -2.4634918e-15 lwl = 2.6243002e-24 wint = 3.5850000e-08 wl = -1.8902563e-15 ww = -1.3000000e-14 wwl = -1.3027796e-20 mobmod = 1 binunit = 2 xl =  1e-08  xw =  0  dwg = -3.9100000e-09 dwb = 3.2000000e-09 acm = 12 ldif = 6.50e-08 hdif = 2.05e-07 rsh = 7.08 rd = 0 rs = 0 rsc = 1.6 rdc = 1.6 vth0 =  0.695  lvth0 = 4.0100000e-10 wvth0 = 1.0200000e-08 pvth0 =  8e-16  k1 = 0.8451000 lk1 = 5.8182560e-10 wk1 = -6.2456240e-09 pk1 = 1.9938927e-15 k2 = 4.4575000e-02 k3 = -3.8500000 dvt0 = 9.4991400 ldvt0 = 8.0839730e-09 dvt1 = 0.6300000 ldvt1 = 5.5000000e-08 dvt2 = -0.1450000 dvt0w = 0.00 dvt1w = 0.1057000 dvt2w = 0.00 nlx = 2.0274594e-07 lnlx = -2.8608589e-14 w0 = 0.00 k3b = 0.5669292 ngate = 2.6812141e+21 vsat = 8.5000000e+04 lvsat = -1.7300000e-03 pvsat = 1.2000000e-10 ua = -8.6001130e-10 ub = 2.3000001e-18 uc = 1.3100000e-10 puc = 5.0000000e-25 rdsw = 2.4208382e+02 prwb = -8.5000000e-02 prwg = 3.8000000e-02 wr = 1.0000000 u0 = 3.5000000e-02 lu0 = 5.0000000e-10 a0 = 1.0200000 la0 = -1.2000000e-07 keta = 0.00 lketa = -1.4000000e-08 wketa = -1.9999999e-09 pketa = 1.0000000e-15 a1 = 0.00 a2 = 0.9900000 ags = 0.1700000 b0 = 1.0000000e-08 b1 = 0.00 voff = -0.1200000 nfactor = 1.1000000 lnfactor = 4.0000000e-08 pnfactor = -1.4000000e-14 cit = 1.0000000e-04 cdsc = 5.0000000e-04 cdscb = 0.00 cdscd = 0.00 eta0 = 4.0000000e-02 peta0 = 3.0000001e-16 etab = -0.1000000 dsub = 0.6000000 pclm = 0.8000000 lpclm = 5.0000000e-08 ppclm = 8.0000000e-15 pdiblc1 = 9.0000000e-02 pdiblc2 = 1.6000000e-03 ppdiblc2 = -7.0000000e-17 pdiblcb = 0.00 drout = 0.5987002 pscbe1 = 3.4000000e+08 lpscbe1 = 13.0000000 pscbe2 = 3.8000000e-06 pvag = 0.00 delta = 1.0000000e-02 alpha0 = -4.4760000e-08 alpha1 = 0.8998877 beta0 = 18.8771250 lbeta0 = -5.7118000e-07 kt1 = -0.3250000 pkt1 = -2.3708420e-15 kt2 = -3.6844640e-02 at = 2.2000000e+04 ute = -1.4100000 ua1 = 2.0599999e-09 wua1 = -1.2600000e-16 pua1 = -1.0000000e-24 ub1 = -2.5000000e-18 wub1 = 1.1000000e-25 uc1 = -1.1000000e-10 luc1 = 1.6999999e-17 kt1l = -5.0000000e-09 prt = 40.0000000 noimod = 2 noia = 1.5500e+20 noib = 7.1866e+04 noic = 1.4952e-13 em = 3.2163e+07 ef = 9.9600e-01 cj =  0.000845  mj = 0.321 pb = 0.708 cjsw =  9.15e-11  mjsw = 0.447 pbsw = 1 cjswg =  3.41e-10  mjswg = 0.447 pbswg = 1 tpb = 0.00166 tpbsw = 0.00162 tpbswg = 0.00162 tcj = 0.000897 tcjsw = 0.000695 tcjswg = 0.000695 js = 3.65e-07 jsw = 3.0e-13 nj = 1.04 xti = 3.9 nqsmod = 0 elm = 5 cgdo =  3.86e-10  cgso =  3.86e-10  tlevc = 1 capmod = 3 xpart = 1 cf = 0.00 acde = 0.45 moin = 24 noff = 2.3177 dlc = 6.50e-08
	* Unrecognized parameter "rdc" -- ignored
solver = Normal
Maximum thread count: 8
tnom = 27
temp = 27
method = modified trap
Warning: LTspice supports BSIM3 version 3.3.0. Your model specified an unrecognized version: 3.24
Warning: Pd = 0 is less than W.
Warning: Ps = 0 is less than W.
Warning: LTspice supports BSIM3 version 3.3.0. Your model specified an unrecognized version: 3.24
Warning: Pd = 0 is less than W.
Warning: Ps = 0 is less than W.
Warning: LTspice supports BSIM3 version 3.3.0. Your model specified an unrecognized version: 3.24
Warning: Pd = 0 is less than W.
Warning: Ps = 0 is less than W.
Warning: LTspice supports BSIM3 version 3.3.0. Your model specified an unrecognized version: 3.24
Warning: Pd = 0 is less than W.
Warning: Ps = 0 is less than W.
Warning: LTspice supports BSIM3 version 3.3.0. Your model specified an unrecognized version: 3.24
Warning: Pd = 0 is less than W.
Warning: Ps = 0 is less than W.
Warning: LTspice supports BSIM3 version 3.3.0. Your model specified an unrecognized version: 3.24
Warning: Pd = 0 is less than W.
Warning: Ps = 0 is less than W.
Warning: LTspice supports BSIM3 version 3.3.0. Your model specified an unrecognized version: 3.24
Warning: Pd = 0 is less than W.
Warning: Ps = 0 is less than W.
Warning: LTspice supports BSIM3 version 3.3.0. Your model specified an unrecognized version: 3.24
Warning: Pd = 0 is less than W.
Warning: Ps = 0 is less than W.
Warning: LTspice supports BSIM3 version 3.3.0. Your model specified an unrecognized version: 3.24
Warning: Pd = 0 is less than W.
Warning: Ps = 0 is less than W.
Warning: LTspice supports BSIM3 version 3.3.0. Your model specified an unrecognized version: 3.24
Warning: Pd = 0 is less than W.
Warning: Ps = 0 is less than W.
Warning: LTspice supports BSIM3 version 3.3.0. Your model specified an unrecognized version: 3.24
Warning: Pd = 0 is less than W.
Warning: Ps = 0 is less than W.
Warning: LTspice supports BSIM3 version 3.3.0. Your model specified an unrecognized version: 3.24
Warning: Pd = 0 is less than W.
Warning: Ps = 0 is less than W.
Direct Newton iteration for .op point succeeded.
Semiconductor Device Operating Points:
                        --- BSIM3 MOSFETS ---
Name:        m14         m13         m4          m0          m1
Model:    smic18n33   smic18n33   smic18n33   smic18n33   smic18n33
Id:        1.27e-07    1.36e-07    7.98e-08    3.99e-08    3.99e-08
Vgs:       6.98e-01    6.98e-01    6.98e-01    1.09e+00    1.09e+00
Vds:       6.98e-01    1.88e+00    1.11e+00    1.61e+00    1.61e+00
Vbs:       0.00e+00    0.00e+00    0.00e+00   -1.11e+00   -1.11e+00
Vth:       7.79e-01    7.79e-01    7.70e-01    1.21e+00    1.21e+00
Vdsat:     4.82e-02    4.83e-02    4.96e-02    4.81e-02    4.81e-02
Gm:        2.66e-06    2.82e-06    1.65e-06    9.28e-07    9.28e-07
Gds:       8.27e-09    6.76e-09    4.13e-09    2.49e-09    2.49e-09
Gmb        1.28e-06    1.36e-06    7.86e-07    3.03e-07    3.03e-07
Cbd:       0.00e+00    0.00e+00    0.00e+00    0.00e+00    0.00e+00
Cbs:       0.00e+00    0.00e+00    0.00e+00    0.00e+00    0.00e+00
Cgsov:     5.03e-16    5.03e-16    2.59e-16    3.66e-16    3.66e-16
Cgdov:     5.03e-16    5.03e-16    2.59e-16    3.66e-16    3.66e-16
Cgbov:     2.27e-16    2.27e-16    2.28e-16    2.28e-16    2.28e-16
dQgdVgb:   2.93e-15    2.94e-15    1.65e-15    1.85e-15    1.85e-15
dQgdVdb:  -5.03e-16   -5.03e-16   -2.59e-16   -3.65e-16   -3.65e-16
dQgdVsb:  -1.26e-15   -1.26e-15   -6.79e-16   -7.09e-16   -7.09e-16
dQddVgb:  -5.04e-16   -5.04e-16   -2.60e-16   -3.66e-16   -3.66e-16
dQddVdb:   5.04e-16    5.03e-16    2.59e-16    3.66e-16    3.66e-16
dQddVsb:   1.08e-18    1.69e-19    2.54e-19    8.83e-20    8.83e-20
dQbdVgb:  -1.24e-15   -1.24e-15   -7.44e-16   -8.08e-16   -8.08e-16
dQbdVdb:  -4.03e-20    2.20e-20    4.32e-21    2.62e-20    2.62e-20
dQbdVsb:  -2.89e-16   -2.89e-16   -1.58e-16   -7.57e-17   -7.57e-17

Name:        m6          m7          m8          m17         m18
Model:    smic18n33   smic18n33   smic18n33   smic18n33   smic18n33
Id:        7.78e-07    3.45e-12    1.42e-13    1.43e-07    1.48e-07
Vgs:       6.98e-01    6.42e-03    6.75e-01    6.98e-01    6.75e-01
Vds:       6.42e-03    3.30e+00    1.30e-08    2.77e+00    6.75e-01
Vbs:       0.00e+00   -1.30e-08    0.00e+00    0.00e+00    0.00e+00
Vth:       7.88e-01    7.88e-01    7.87e-01    7.79e-01    7.84e-01
Vdsat:     4.70e-02    3.97e-02    4.46e-02    4.83e-02    4.49e-02
Gm:        1.48e-05    3.72e-12    2.82e-12    2.95e-06    3.20e-06
Gds:       1.12e-04    1.94e-14    1.09e-05    1.07e-08    1.03e-08
Gmb        7.28e-06    2.21e-12    1.39e-12    1.42e-06    1.56e-06
Cbd:       0.00e+00    0.00e+00    0.00e+00    0.00e+00    0.00e+00
Cbs:       0.00e+00    0.00e+00    0.00e+00    0.00e+00    0.00e+00
Cgsov:     1.93e-14    2.30e-14    2.40e-15    5.03e-16    1.04e-15
Cgdov:     1.93e-14    2.30e-14    2.40e-15    5.03e-16    1.04e-15
Cgbov:     2.26e-16    2.26e-16    2.26e-16    2.27e-16    2.26e-16
dQgdVgb:   1.08e-13    1.17e-13    1.33e-14    2.94e-15    5.63e-15
dQgdVdb:  -4.29e-14   -2.30e-14   -5.89e-15   -5.03e-16   -1.04e-15
dQgdVsb:  -3.14e-14   -2.31e-14   -2.82e-15   -1.26e-15   -2.28e-15
dQddVgb:  -3.45e-14   -2.30e-14   -4.30e-15   -5.04e-16   -1.05e-15
dQddVdb:   8.01e-14    2.30e-14    1.14e-14    5.03e-16    1.04e-15
dQddVsb:  -3.74e-14    1.49e-21   -6.05e-15    7.96e-20    1.85e-18
dQbdVgb:  -3.51e-14   -7.06e-14   -4.73e-15   -1.24e-15   -2.41e-15
dQbdVdb:  -1.70e-14    8.18e-22   -2.51e-15    2.45e-20   -7.00e-20
dQbdVsb:   1.85e-18   -1.20e-17    5.89e-16   -2.89e-16   -4.83e-16

Name:        m12         m10         m11         m9          m2
Model:    smic18p33   smic18p33   smic18p33   smic18p33   smic18p33
Id:       -1.27e-07   -1.27e-07   -1.36e-07   -1.36e-07   -3.99e-08
Vgs:      -7.12e-01   -7.02e-01   -7.17e-01   -7.06e-01   -5.73e-01
Vds:      -1.89e+00   -7.07e-01   -7.17e-01   -7.06e-01   -5.73e-01
Vbs:       0.00e+00    0.00e+00    0.00e+00    0.00e+00    0.00e+00
Vth:      -6.62e-01   -6.56e-01   -6.62e-01   -6.56e-01   -6.75e-01
Vdsat:    -8.45e-02   -8.45e-02   -8.71e-02   -8.64e-02   -4.32e-02
Gm:        2.10e-06    2.11e-06    2.20e-06    2.22e-06    8.78e-07
Gds:       1.58e-09    6.13e-09    4.18e-09    6.54e-09    1.31e-09
Gmb        1.05e-06    1.03e-06    1.10e-06    1.09e-06    4.64e-07
Cbd:       0.00e+00    0.00e+00    0.00e+00    0.00e+00    0.00e+00
Cbs:       0.00e+00    0.00e+00    0.00e+00    0.00e+00    0.00e+00
Cgsov:     2.34e-16    1.89e-16    2.34e-16    1.89e-16    1.62e-15
Cgdov:     2.34e-16    1.89e-16    2.34e-16    1.89e-16    1.62e-15
Cgbov:     4.64e-16    3.57e-16    4.64e-16    3.57e-16    4.30e-16
dQgdVgb:   2.72e-15    1.84e-15    2.75e-15    1.85e-15    9.19e-15
dQgdVdb:  -2.34e-16   -1.89e-16   -2.34e-16   -1.89e-16   -1.62e-15
dQgdVsb:  -1.70e-15   -1.09e-15   -1.75e-15   -1.12e-15   -1.66e-15
dQddVgb:  -2.34e-16   -1.90e-16   -2.35e-16   -1.90e-16   -1.62e-15
dQddVdb:   2.34e-16    1.89e-16    2.34e-16    1.89e-16    1.62e-15
dQddVsb:   3.50e-19    1.45e-18    2.43e-18    1.49e-18    2.18e-19
dQbdVgb:  -8.62e-16   -6.13e-16   -8.52e-16   -6.08e-16   -5.86e-15
dQbdVdb:   6.72e-21    4.90e-21   -6.31e-20    2.11e-21   -2.72e-21
dQbdVsb:  -6.30e-16   -3.67e-16   -6.45e-16   -3.74e-16   -9.44e-17

Name:        m3          m5          m15         m16
Model:    smic18p33   smic18p33   smic18p33   smic18p33
Id:       -3.99e-08   -7.78e-07   -1.43e-07   -1.48e-07
Vgs:      -5.73e-01   -5.73e-01   -5.30e-01   -5.30e-01
Vds:      -5.73e-01   -3.29e+00   -5.30e-01   -2.62e+00
Vbs:       0.00e+00    0.00e+00    0.00e+00    0.00e+00
Vth:      -6.75e-01   -6.77e-01   -6.77e-01   -6.77e-01
Vdsat:    -4.32e-02   -4.31e-02   -4.07e-02   -4.07e-02
